T5BA4 000:018.172   SEGGER J-Link V7.22b Log File
T5BA4 000:018.365   DLL Compiled: Jun 17 2021 17:22:49
T5BA4 000:018.381   Logging started @ 2024-02-22 02:22
T5BA4 000:018.395 - 18.403ms
T5BA4 000:018.423 JLINK_SetWarnOutHandler(...)
T5BA4 000:018.441 - 0.026ms
T5BA4 000:018.459 JLINK_OpenEx(...)
T5BA4 000:020.300   Firmware: J-Link V9 compiled May  7 2021 16:26:12
T5BA4 000:020.683   Firmware: J-Link V9 compiled May  7 2021 16:26:12
T5BA4 000:020.887   Decompressing FW timestamp took 149 us
T5BA4 000:029.172   Hardware: V9.40
T5BA4 000:029.207   S/N: 69403302
T5BA4 000:029.232   OEM: SEGGER
T5BA4 000:029.248   Feature(s): RDI, GDB, FlashDL, FlashBP, JFlash
T5BA4 000:030.484   TELNET listener socket opened on port 19021
T5BA4 000:030.683   WEBSRV Starting webserver
T5BA4 000:030.924   WEBSRV Webserver running on local port 19080
T5BA4 000:030.946 - 12.492ms returns "O.K."
T5BA4 000:030.970 JLINK_GetEmuCaps()
T5BA4 000:030.987 - 0.024ms returns 0xB9FF7BBF
T5BA4 000:031.012 JLINK_TIF_GetAvailable(...)
T5BA4 000:031.270 - 0.274ms
T5BA4 000:031.300 JLINK_SetErrorOutHandler(...)
T5BA4 000:031.312 - 0.017ms
T5BA4 000:031.347 JLINK_ExecCommand("ProjectFile = "D:\BaiduSyncdisk\Work\082\Template\MDK-ARM\JLinkSettings.ini"", ...). 
T5BA4 000:041.899 - 10.567ms returns 0x00
T5BA4 000:041.947 JLINK_ExecCommand("Device = STM32F429VGTx", ...). 
T5BA4 000:042.530   Device "STM32F429VG" selected.
T5BA4 000:042.867 - 0.916ms returns 0x00
T5BA4 000:042.890 JLINK_GetHardwareVersion()
T5BA4 000:042.903 - 0.018ms returns 94000
T5BA4 000:042.915 JLINK_GetDLLVersion()
T5BA4 000:042.924 - 0.014ms returns 72202
T5BA4 000:042.935 JLINK_GetOEMString(...)
T5BA4 000:042.947 JLINK_GetFirmwareString(...)
T5BA4 000:042.961 - 0.019ms
T5BA4 000:042.986 JLINK_GetDLLVersion()
T5BA4 000:042.998 - 0.016ms returns 72202
T5BA4 000:043.009 JLINK_GetCompileDateTime()
T5BA4 000:043.020 - 0.015ms
T5BA4 000:043.036 JLINK_GetFirmwareString(...)
T5BA4 000:043.047 - 0.016ms
T5BA4 000:043.062 JLINK_GetHardwareVersion()
T5BA4 000:043.073 - 0.016ms returns 94000
T5BA4 000:043.088 JLINK_GetSN()
T5BA4 000:043.100 - 0.016ms returns 69403302
T5BA4 000:043.114 JLINK_GetOEMString(...)
T5BA4 000:043.139 JLINK_TIF_Select(JLINKARM_TIF_SWD)
T5BA4 000:043.936 - 0.810ms returns 0x00
T5BA4 000:043.959 JLINK_HasError()
T5BA4 000:043.994 JLINK_SetSpeed(1000)
T5BA4 000:044.124 - 0.144ms
T5BA4 000:044.148 JLINK_GetId()
T5BA4 000:044.395   InitTarget() start
T5BA4 000:044.419    J-Link Script File: Executing InitTarget()
T5BA4 000:053.834   InitTarget() end
T5BA4 000:054.783   Found SW-DP with ID 0x2BA01477
T5BA4 000:057.934   DPIDR: 0x2BA01477
T5BA4 000:057.983   Scanning AP map to find all available APs
T5BA4 000:058.872   AP[1]: Stopped AP scan as end of AP map has been reached
T5BA4 000:058.904   AP[0]: AHB-AP (IDR: 0x24770011)
T5BA4 000:058.924   Iterating through AP map to find AHB-AP to use
T5BA4 000:060.514   AP[0]: Core found
T5BA4 000:060.543   AP[0]: AHB-AP ROM base: 0xE00FF000
T5BA4 000:061.400   CPUID register: 0x410FC241. Implementer code: 0x41 (ARM)
T5BA4 000:061.426   Found Cortex-M4 r0p1, Little endian.
T5BA4 000:162.711   -- Max. mem block: 0x00010E60
T5BA4 000:162.913   CPU_ReadMem(4 bytes @ 0xE000EDF0)
T5BA4 000:163.638   CPU_ReadMem(4 bytes @ 0xE0002000)
T5BA4 000:164.334   FPUnit: 6 code (BP) slots and 2 literal slots
T5BA4 000:164.363   CPU_ReadMem(4 bytes @ 0xE000EDFC)
T5BA4 000:165.012   CPU_WriteMem(4 bytes @ 0xE000EDFC)
T5BA4 000:165.694   CPU_ReadMem(4 bytes @ 0xE0001000)
T5BA4 000:166.395   CPU_WriteMem(4 bytes @ 0xE0001000)
T5BA4 000:167.207   CPU_ReadMem(4 bytes @ 0xE000ED88)
T5BA4 000:167.905   CPU_WriteMem(4 bytes @ 0xE000ED88)
T5BA4 000:168.739   CPU_ReadMem(4 bytes @ 0xE000ED88)
T5BA4 000:169.546   CPU_WriteMem(4 bytes @ 0xE000ED88)
T5BA4 000:170.292   CoreSight components:
T5BA4 000:170.323   ROMTbl[0] @ E00FF000
T5BA4 000:170.342   CPU_ReadMem(64 bytes @ 0xE00FF000)
T5BA4 000:172.160   CPU_ReadMem(32 bytes @ 0xE000EFE0)
T5BA4 000:173.416   ROMTbl[0][0]: E000E000, CID: B105E00D, PID: 000BB00C SCS-M7
T5BA4 000:173.507   CPU_ReadMem(32 bytes @ 0xE0001FE0)
T5BA4 000:174.664   ROMTbl[0][1]: E0001000, CID: B105E00D, PID: 003BB002 DWT
T5BA4 000:174.692   CPU_ReadMem(32 bytes @ 0xE0002FE0)
T5BA4 000:175.859   ROMTbl[0][2]: E0002000, CID: B105E00D, PID: 002BB003 FPB
T5BA4 000:175.884   CPU_ReadMem(32 bytes @ 0xE0000FE0)
T5BA4 000:177.058   ROMTbl[0][3]: E0000000, CID: B105E00D, PID: 003BB001 ITM
T5BA4 000:177.084   CPU_ReadMem(32 bytes @ 0xE0040FE0)
T5BA4 000:178.303   ROMTbl[0][4]: E0040000, CID: B105900D, PID: 000BB9A1 TPIU
T5BA4 000:178.328   CPU_ReadMem(32 bytes @ 0xE0041FE0)
T5BA4 000:179.515   ROMTbl[0][5]: E0041000, CID: B105900D, PID: 000BB925 ETM
T5BA4 000:179.853 - 135.722ms returns 0x2BA01477
T5BA4 000:179.887 JLINK_GetDLLVersion()
T5BA4 000:179.899 - 0.017ms returns 72202
T5BA4 000:179.914 JLINK_CORE_GetFound()
T5BA4 000:179.925 - 0.017ms returns 0xE0000FF
T5BA4 000:179.940 JLINK_GetDebugInfo(0x100 = JLINKARM_ROM_TABLE_ADDR_INDEX)
T5BA4 000:179.953   Value=0xE00FF000
T5BA4 000:179.969 - 0.033ms returns 0
T5BA4 000:180.037 JLINK_GetDebugInfo(0x100 = JLINKARM_ROM_TABLE_ADDR_INDEX)
T5BA4 000:180.054   Value=0xE00FF000
T5BA4 000:180.070 - 0.038ms returns 0
T5BA4 000:180.081 JLINK_GetDebugInfo(0x101 = JLINKARM_DEBUG_INFO_ETM_ADDR_INDEX)
T5BA4 000:180.092   Value=0xE0041000
T5BA4 000:180.108 - 0.032ms returns 0
T5BA4 000:180.131 JLINK_ReadMemEx(0xE0041FD0, 0x20 Bytes, Flags = 0x02000004)
T5BA4 000:180.179   CPU_ReadMem(32 bytes @ 0xE0041FD0)
T5BA4 000:181.447   Data:  04 00 00 00 00 00 00 00 00 00 00 00 00 00 00 00 ...
T5BA4 000:181.469 - 1.343ms returns 32 (0x20)
T5BA4 000:181.483 JLINK_GetDebugInfo(0x102 = JLINKARM_DEBUG_INFO_MTB_ADDR_INDEX)
T5BA4 000:181.495   Value=0x00000000
T5BA4 000:181.511 - 0.033ms returns 0
T5BA4 000:181.523 JLINK_GetDebugInfo(0x103 = JLINKARM_DEBUG_INFO_TPIU_ADDR_INDEX)
T5BA4 000:181.533   Value=0xE0040000
T5BA4 000:181.549 - 0.031ms returns 0
T5BA4 000:181.561 JLINK_GetDebugInfo(0x104 = JLINKARM_DEBUG_INFO_ITM_ADDR_INDEX)
T5BA4 000:181.572   Value=0xE0000000
T5BA4 000:181.588 - 0.032ms returns 0
T5BA4 000:181.599 JLINK_GetDebugInfo(0x105 = JLINKARM_DEBUG_INFO_DWT_ADDR_INDEX)
T5BA4 000:181.611   Value=0xE0001000
T5BA4 000:181.626 - 0.032ms returns 0
T5BA4 000:181.638 JLINK_GetDebugInfo(0x106 = JLINKARM_DEBUG_INFO_FPB_ADDR_INDEX)
T5BA4 000:181.649   Value=0xE0002000
T5BA4 000:181.665 - 0.032ms returns 0
T5BA4 000:181.676 JLINK_GetDebugInfo(0x107 = JLINKARM_DEBUG_INFO_NVIC_ADDR_INDEX)
T5BA4 000:181.687   Value=0xE000E000
T5BA4 000:181.703 - 0.032ms returns 0
T5BA4 000:181.714 JLINK_GetDebugInfo(0x10C = JLINKARM_DEBUG_INFO_DBG_ADDR_INDEX)
T5BA4 000:181.726   Value=0xE000EDF0
T5BA4 000:181.741 - 0.032ms returns 0
T5BA4 000:181.753 JLINK_GetDebugInfo(0x01 = Unknown)
T5BA4 000:181.765   Value=0x00000001
T5BA4 000:181.780 - 0.032ms returns 0
T5BA4 000:181.792 JLINK_ReadMemU32(0xE000ED00, 0x1 Items)
T5BA4 000:181.808   CPU_ReadMem(4 bytes @ 0xE000ED00)
T5BA4 000:182.504   Data:  41 C2 0F 41
T5BA4 000:182.557   Debug reg: CPUID
T5BA4 000:182.572 - 0.785ms returns 1 (0x1)
T5BA4 000:182.585 JLINK_GetDebugInfo(0x10F = JLINKARM_DEBUG_INFO_HAS_CORTEX_M_SECURITY_EXT_INDEX)
T5BA4 000:182.597   Value=0x00000000
T5BA4 000:182.613 - 0.033ms returns 0
T5BA4 000:182.625 JLINK_HasError()
T5BA4 000:182.637 JLINK_SetResetType(JLINKARM_CM3_RESET_TYPE_NORMAL)
T5BA4 000:182.649 - 0.018ms returns JLINKARM_CM3_RESET_TYPE_NORMAL
T5BA4 000:182.662 JLINK_Reset()
T5BA4 000:182.687   CPU is running
T5BA4 000:182.706   CPU_WriteMem(4 bytes @ 0xE000EDF0)
T5BA4 000:183.346   CPU is running
T5BA4 000:183.370   CPU_WriteMem(4 bytes @ 0xE000EDFC)
T5BA4 000:184.030   Reset: Halt core after reset via DEMCR.VC_CORERESET.
T5BA4 000:184.518   Reset: Reset device via AIRCR.SYSRESETREQ.
T5BA4 000:184.542   CPU is running
T5BA4 000:184.558   CPU_WriteMem(4 bytes @ 0xE000ED0C)
T5BA4 000:237.554   CPU_ReadMem(4 bytes @ 0xE000EDF0)
T5BA4 000:238.287   CPU_ReadMem(4 bytes @ 0xE000EDF0)
T5BA4 000:238.980   CPU is running
T5BA4 000:239.011   CPU_WriteMem(4 bytes @ 0xE000EDF0)
T5BA4 000:239.671   CPU is running
T5BA4 000:239.694   CPU_WriteMem(4 bytes @ 0xE000EDFC)
T5BA4 000:246.028   CPU_ReadMem(4 bytes @ 0xE000EDF0)
T5BA4 000:255.112   CPU_WriteMem(4 bytes @ 0xE0002000)
T5BA4 000:255.805   CPU_ReadMem(4 bytes @ 0xE000EDFC)
T5BA4 000:256.484   CPU_ReadMem(4 bytes @ 0xE0001000)
T5BA4 000:257.212 - 74.585ms
T5BA4 000:257.263 JLINK_HasError()
T5BA4 000:257.279 JLINK_ReadReg(R15 (PC))
T5BA4 000:257.304 - 0.029ms returns 0x08000284
T5BA4 000:257.319 JLINK_ReadReg(XPSR)
T5BA4 000:257.330 - 0.017ms returns 0x01000000
T5BA4 000:257.346 JLINK_Halt()
T5BA4 000:257.356 - 0.015ms returns 0x00
T5BA4 000:257.371 JLINK_ReadMemU32(0xE000EDF0, 0x1 Items)
T5BA4 000:257.387   CPU_ReadMem(4 bytes @ 0xE000EDF0)
T5BA4 000:258.028   Data:  03 00 03 00
T5BA4 000:258.051   Debug reg: DHCSR
T5BA4 000:258.065 - 0.699ms returns 1 (0x1)
T5BA4 000:258.083 JLINK_WriteU32_64(0xE000EDF0, 0xA05F0003)
T5BA4 000:258.098   Debug reg: DHCSR
T5BA4 000:258.392   CPU_WriteMem(4 bytes @ 0xE000EDF0)
T5BA4 000:259.043 - 0.971ms returns 0 (0x00000000)
T5BA4 000:259.067 JLINK_WriteU32_64(0xE000EDFC, 0x01000000)
T5BA4 000:259.079   Debug reg: DEMCR
T5BA4 000:259.099   CPU_WriteMem(4 bytes @ 0xE000EDFC)
T5BA4 000:259.794 - 0.739ms returns 0 (0x00000000)
T5BA4 000:259.855 JLINK_GetHWStatus(...)
T5BA4 000:260.035 - 0.194ms returns 0
T5BA4 000:260.078 JLINK_GetNumBPUnits(Type = 0xFFFFFF00)
T5BA4 000:260.092 - 0.018ms returns 0x06
T5BA4 000:260.104 JLINK_GetNumBPUnits(Type = 0xF0)
T5BA4 000:260.114 - 0.015ms returns 0x2000
T5BA4 000:260.125 JLINK_GetNumWPUnits()
T5BA4 000:260.136 - 0.015ms returns 4
T5BA4 000:260.158 JLINK_GetSpeed()
T5BA4 000:260.169 - 0.016ms returns 1000
T5BA4 000:260.186 JLINK_ReadMemU32(0xE000E004, 0x1 Items)
T5BA4 000:260.204   CPU_ReadMem(4 bytes @ 0xE000E004)
T5BA4 000:260.945   Data:  02 00 00 00
T5BA4 000:260.967 - 0.786ms returns 1 (0x1)
T5BA4 000:260.980 JLINK_ReadMemU32(0xE000E004, 0x1 Items)
T5BA4 000:260.995   CPU_ReadMem(4 bytes @ 0xE000E004)
T5BA4 000:261.715   Data:  02 00 00 00
T5BA4 000:261.735 - 0.760ms returns 1 (0x1)
T5BA4 000:261.748 JLINK_WriteMemEx(0xE0001000, 0x0000001C Bytes, Flags = 0x02000004)
T5BA4 000:261.759   Data:  01 00 00 00 00 00 00 00 00 00 00 00 00 00 00 00 ...
T5BA4 000:261.780   CPU_WriteMem(28 bytes @ 0xE0001000)
T5BA4 000:262.846 - 1.111ms returns 0x1C
T5BA4 000:262.868 JLINK_HasError()
T5BA4 000:262.882 JLINK_ReadReg(R15 (PC))
T5BA4 000:262.900 - 0.025ms returns 0x08000284
T5BA4 000:262.916 JLINK_ReadReg(XPSR)
T5BA4 000:262.929 - 0.018ms returns 0x01000000
T5BA4 000:268.295 JLINK_ReadMemEx(0xE0001004, 0x4 Bytes, Flags = 0x02000000)
T5BA4 000:268.339   Data:  00 00 00 00
T5BA4 000:268.355   Debug reg: DWT_CYCCNT
T5BA4 000:268.370 - 0.080ms returns 4 (0x4)
T5BA4 000:444.151 JLINK_HasError()
T5BA4 000:444.190 JLINK_SetResetType(JLINKARM_CM3_RESET_TYPE_NORMAL)
T5BA4 000:444.202 - 0.017ms returns JLINKARM_CM3_RESET_TYPE_NORMAL
T5BA4 000:444.215 JLINK_Reset()
T5BA4 000:444.236   CPU_WriteMem(4 bytes @ 0xE000EDF0)
T5BA4 000:444.925   CPU_WriteMem(4 bytes @ 0xE000EDFC)
T5BA4 000:445.643   Reset: Halt core after reset via DEMCR.VC_CORERESET.
T5BA4 000:446.125   Reset: Reset device via AIRCR.SYSRESETREQ.
T5BA4 000:446.154   CPU_WriteMem(4 bytes @ 0xE000ED0C)
T5BA4 000:499.556   CPU_ReadMem(4 bytes @ 0xE000EDF0)
T5BA4 000:500.561   CPU_ReadMem(4 bytes @ 0xE000EDF0)
T5BA4 000:501.582   CPU_WriteMem(4 bytes @ 0xE000EDF0)
T5BA4 000:502.600   CPU_WriteMem(4 bytes @ 0xE000EDFC)
T5BA4 000:509.615   CPU_ReadMem(4 bytes @ 0xE000EDF0)
T5BA4 000:518.802   CPU_WriteMem(4 bytes @ 0xE0002000)
T5BA4 000:519.495   CPU_ReadMem(4 bytes @ 0xE000EDFC)
T5BA4 000:520.153   CPU_ReadMem(4 bytes @ 0xE0001000)
T5BA4 000:520.813 - 76.611ms
T5BA4 000:520.941 JLINK_HasError()
T5BA4 000:520.957 JLINK_ReadReg(R15 (PC))
T5BA4 000:520.972 - 0.020ms returns 0x08000284
T5BA4 000:520.984 JLINK_ReadReg(XPSR)
T5BA4 000:520.997 - 0.017ms returns 0x01000000
T5BA4 000:521.403 JLINK_ReadMemEx(0x08000284, 0x3C Bytes, Flags = 0x02000000)
T5BA4 000:521.455   CPU_ReadMem(64 bytes @ 0x08000280)
T5BA4 000:523.345    -- Updating C cache (64 bytes @ 0x08000280)
T5BA4 000:523.374    -- Read from C cache (60 bytes @ 0x08000284)
T5BA4 000:523.392   Data:  06 48 80 47 06 48 00 47 FE E7 FE E7 FE E7 FE E7 ...
T5BA4 000:523.407 - 2.009ms returns 60 (0x3C)
T5BA4 000:523.422 JLINK_ReadMemEx(0x08000284, 0x2 Bytes, Flags = 0x02000000)
T5BA4 000:523.436    -- Read from C cache (2 bytes @ 0x08000284)
T5BA4 000:523.451   Data:  06 48
T5BA4 000:523.468 - 0.051ms returns 2 (0x2)
T5BA4 000:523.543 JLINK_ReadMemEx(0x08000286, 0x2 Bytes, Flags = 0x02000000)
T5BA4 000:523.557    -- Read from C cache (2 bytes @ 0x08000286)
T5BA4 000:523.573   Data:  80 47
T5BA4 000:523.588 - 0.050ms returns 2 (0x2)
T5BA4 000:523.613 JLINK_ReadMemEx(0x08000286, 0x2 Bytes, Flags = 0x02000000)
T5BA4 000:523.625    -- Read from C cache (2 bytes @ 0x08000286)
T5BA4 000:523.641   Data:  80 47
T5BA4 000:523.657 - 0.049ms returns 2 (0x2)
T5BA4 000:523.669 JLINK_ReadMemEx(0x08000288, 0x3C Bytes, Flags = 0x02000000)
T5BA4 000:523.683   CPU_ReadMem(64 bytes @ 0x080002C0)
T5BA4 000:525.435    -- Updating C cache (64 bytes @ 0x080002C0)
T5BA4 000:525.461    -- Read from C cache (60 bytes @ 0x08000288)
T5BA4 000:525.477   Data:  06 48 00 47 FE E7 FE E7 FE E7 FE E7 FE E7 FE E7 ...
T5BA4 000:525.493 - 1.830ms returns 60 (0x3C)
T5BA4 000:525.507 JLINK_ReadMemEx(0x08000288, 0x2 Bytes, Flags = 0x02000000)
T5BA4 000:525.520    -- Read from C cache (2 bytes @ 0x08000288)
T5BA4 000:525.536   Data:  06 48
T5BA4 000:525.551 - 0.049ms returns 2 (0x2)
T5BA4 003:277.415 JLINK_HasError()
T5BA4 003:277.456 JLINK_ReadReg(R0)
T5BA4 003:278.163 - 0.725ms returns 0x00000000
T5BA4 003:278.191 JLINK_ReadReg(R1)
T5BA4 003:278.203 - 0.017ms returns 0x00000000
T5BA4 003:278.215 JLINK_ReadReg(R2)
T5BA4 003:278.226 - 0.016ms returns 0x00000000
T5BA4 003:278.238 JLINK_ReadReg(R3)
T5BA4 003:278.248 - 0.016ms returns 0x00000000
T5BA4 003:278.260 JLINK_ReadReg(R4)
T5BA4 003:278.270 - 0.015ms returns 0x00000000
T5BA4 003:278.282 JLINK_ReadReg(R5)
T5BA4 003:278.292 - 0.016ms returns 0x00000000
T5BA4 003:278.304 JLINK_ReadReg(R6)
T5BA4 003:278.315 - 0.015ms returns 0x00000000
T5BA4 003:278.326 JLINK_ReadReg(R7)
T5BA4 003:278.336 - 0.016ms returns 0x00000000
T5BA4 003:278.348 JLINK_ReadReg(R8)
T5BA4 003:278.377 - 0.034ms returns 0x00000000
T5BA4 003:278.389 JLINK_ReadReg(R9)
T5BA4 003:278.399 - 0.015ms returns 0x00000000
T5BA4 003:278.410 JLINK_ReadReg(R10)
T5BA4 003:278.421 - 0.016ms returns 0x00000000
T5BA4 003:278.433 JLINK_ReadReg(R11)
T5BA4 003:278.443 - 0.015ms returns 0x00000000
T5BA4 003:278.454 JLINK_ReadReg(R12)
T5BA4 003:278.464 - 0.015ms returns 0x00000000
T5BA4 003:278.476 JLINK_ReadReg(R13 (SP))
T5BA4 003:278.487 - 0.016ms returns 0x10003D28
T5BA4 003:278.498 JLINK_ReadReg(R14)
T5BA4 003:278.509 - 0.016ms returns 0xFFFFFFFF
T5BA4 003:278.521 JLINK_ReadReg(R15 (PC))
T5BA4 003:278.532 - 0.015ms returns 0x08000284
T5BA4 003:278.543 JLINK_ReadReg(XPSR)
T5BA4 003:278.553 - 0.015ms returns 0x01000000
T5BA4 003:278.564 JLINK_ReadReg(MSP)
T5BA4 003:278.575 - 0.015ms returns 0x10003D28
T5BA4 003:278.585 JLINK_ReadReg(PSP)
T5BA4 003:278.596 - 0.016ms returns 0x00000000
T5BA4 003:278.608 JLINK_ReadReg(CFBP)
T5BA4 003:278.618 - 0.015ms returns 0x00000000
T5BA4 003:278.629 JLINK_ReadReg(FPSCR)
T5BA4 003:292.083 - 13.486ms returns 0x00000000
T5BA4 003:292.127 JLINK_ReadReg(FPS0)
T5BA4 003:292.142 - 0.020ms returns 0x00000000
T5BA4 003:292.154 JLINK_ReadReg(FPS1)
T5BA4 003:292.165 - 0.016ms returns 0x00000000
T5BA4 003:292.177 JLINK_ReadReg(FPS2)
T5BA4 003:292.189 - 0.016ms returns 0x00000000
T5BA4 003:292.201 JLINK_ReadReg(FPS3)
T5BA4 003:292.212 - 0.016ms returns 0x00000000
T5BA4 003:292.224 JLINK_ReadReg(FPS4)
T5BA4 003:292.235 - 0.016ms returns 0x00000000
T5BA4 003:292.247 JLINK_ReadReg(FPS5)
T5BA4 003:292.258 - 0.016ms returns 0x00000000
T5BA4 003:292.270 JLINK_ReadReg(FPS6)
T5BA4 003:292.282 - 0.016ms returns 0x00000000
T5BA4 003:292.293 JLINK_ReadReg(FPS7)
T5BA4 003:292.369 - 0.084ms returns 0x00000000
T5BA4 003:292.386 JLINK_ReadReg(FPS8)
T5BA4 003:292.397 - 0.017ms returns 0x00000000
T5BA4 003:292.409 JLINK_ReadReg(FPS9)
T5BA4 003:292.420 - 0.016ms returns 0x00000000
T5BA4 003:292.432 JLINK_ReadReg(FPS10)
T5BA4 003:292.444 - 0.016ms returns 0x00000000
T5BA4 003:292.455 JLINK_ReadReg(FPS11)
T5BA4 003:292.467 - 0.017ms returns 0x00000000
T5BA4 003:292.478 JLINK_ReadReg(FPS12)
T5BA4 003:292.490 - 0.017ms returns 0x00000000
T5BA4 003:292.502 JLINK_ReadReg(FPS13)
T5BA4 003:292.512 - 0.016ms returns 0x00000000
T5BA4 003:292.525 JLINK_ReadReg(FPS14)
T5BA4 003:292.536 - 0.016ms returns 0x00000000
T5BA4 003:292.548 JLINK_ReadReg(FPS15)
T5BA4 003:292.559 - 0.017ms returns 0x00000000
T5BA4 003:292.571 JLINK_ReadReg(FPS16)
T5BA4 003:292.583 - 0.016ms returns 0x00000000
T5BA4 003:292.594 JLINK_ReadReg(FPS17)
T5BA4 003:292.605 - 0.016ms returns 0x00000000
T5BA4 003:292.619 JLINK_ReadReg(FPS18)
T5BA4 003:292.630 - 0.016ms returns 0x00000000
T5BA4 003:292.642 JLINK_ReadReg(FPS19)
T5BA4 003:292.653 - 0.017ms returns 0x00000000
T5BA4 003:292.665 JLINK_ReadReg(FPS20)
T5BA4 003:292.676 - 0.016ms returns 0x00000000
T5BA4 003:292.688 JLINK_ReadReg(FPS21)
T5BA4 003:292.698 - 0.016ms returns 0x00000000
T5BA4 003:292.711 JLINK_ReadReg(FPS22)
T5BA4 003:292.722 - 0.016ms returns 0x00000000
T5BA4 003:292.734 JLINK_ReadReg(FPS23)
T5BA4 003:292.745 - 0.017ms returns 0x00000000
T5BA4 003:292.757 JLINK_ReadReg(FPS24)
T5BA4 003:292.769 - 0.016ms returns 0x00000000
T5BA4 003:292.780 JLINK_ReadReg(FPS25)
T5BA4 003:292.791 - 0.016ms returns 0x00000000
T5BA4 003:292.803 JLINK_ReadReg(FPS26)
T5BA4 003:292.815 - 0.016ms returns 0x00000000
T5BA4 003:292.826 JLINK_ReadReg(FPS27)
T5BA4 003:292.838 - 0.017ms returns 0x00000000
T5BA4 003:292.850 JLINK_ReadReg(FPS28)
T5BA4 003:292.861 - 0.016ms returns 0x00000000
T5BA4 003:292.873 JLINK_ReadReg(FPS29)
T5BA4 003:292.884 - 0.016ms returns 0x00000000
T5BA4 003:292.896 JLINK_ReadReg(FPS30)
T5BA4 003:292.907 - 0.016ms returns 0x00000000
T5BA4 003:292.919 JLINK_ReadReg(FPS31)
T5BA4 003:292.931 - 0.017ms returns 0x00000000
T3A04 003:569.952 JLINK_ReadMemEx(0x08000284, 0x2 Bytes, Flags = 0x02000000)
T3A04 003:569.992    -- Read from C cache (2 bytes @ 0x08000284)
T3A04 003:570.007   Data:  06 48
T3A04 003:570.023 - 0.076ms returns 2 (0x2)
T3A04 003:570.035 JLINK_HasError()
T3A04 003:570.048 JLINK_SetBPEx(Addr = 0x08012124, Type = 0xFFFFFFF2)
T3A04 003:570.062 - 0.019ms returns 0x00000001
T3A04 003:570.073 JLINK_HasError()
T3A04 003:570.084 JLINK_SetBPEx(Addr = 0x0800662A, Type = 0xFFFFFFF2)
T3A04 003:570.095 - 0.015ms returns 0x00000002
T3A04 003:570.106 JLINK_HasError()
T3A04 003:570.117 JLINK_SetBPEx(Addr = 0x08018834, Type = 0xFFFFFFF2)
T3A04 003:570.128 - 0.015ms returns 0x00000003
T3A04 003:570.139 JLINK_HasError()
T3A04 003:570.150 JLINK_SetBPEx(Addr = 0x08007834, Type = 0xFFFFFFF2)
T3A04 003:570.160 - 0.016ms returns 0x00000004
T3A04 003:570.171 JLINK_HasError()
T3A04 003:570.182 JLINK_SetBPEx(Addr = 0x08015282, Type = 0xFFFFFFF2)
T3A04 003:570.193 - 0.015ms returns 0x00000005
T3A04 003:570.204 JLINK_HasError()
T3A04 003:570.215 JLINK_HasError()
T3A04 003:570.226 JLINK_Go()
T3A04 003:570.269   CPU_WriteMem(4 bytes @ 0xE0002000)
T3A04 003:570.946   CPU_WriteMem(4 bytes @ 0xE0002000)
T3A04 003:571.622   CPU_WriteMem(4 bytes @ 0xE0002000)
T3A04 003:572.320   CPU_WriteMem(4 bytes @ 0xE0002000)
T3A04 003:573.006   CPU_WriteMem(4 bytes @ 0xE0002000)
T3A04 003:573.668   CPU_ReadMem(4 bytes @ 0xE0001000)
T3A04 003:574.316   CPU_WriteMem(4 bytes @ 0xE0002008)
T3A04 003:574.342   CPU_WriteMem(4 bytes @ 0xE000200C)
T3A04 003:574.357   CPU_WriteMem(4 bytes @ 0xE0002010)
T3A04 003:574.371   CPU_WriteMem(4 bytes @ 0xE0002014)
T3A04 003:574.386   CPU_WriteMem(4 bytes @ 0xE0002018)
T3A04 003:574.401   CPU_WriteMem(4 bytes @ 0xE000201C)
T3A04 003:577.577   CPU_WriteMem(4 bytes @ 0xE0001004)
T3A04 003:579.318 - 9.117ms
T3A04 003:680.034 JLINK_HasError()
T3A04 003:680.069 JLINK_IsHalted()
T3A04 003:688.479 - 8.445ms returns TRUE
T3A04 003:688.548 JLINK_HasError()
T3A04 003:688.570 JLINK_Halt()
T3A04 003:688.586 - 0.023ms returns 0x00
T3A04 003:688.606 JLINK_IsHalted()
T3A04 003:688.621 - 0.022ms returns TRUE
T3A04 003:688.639 JLINK_IsHalted()
T3A04 003:688.652 - 0.020ms returns TRUE
T3A04 003:688.668 JLINK_IsHalted()
T3A04 003:688.680 - 0.019ms returns TRUE
T3A04 003:688.697 JLINK_HasError()
T3A04 003:688.714 JLINK_ReadReg(R15 (PC))
T3A04 003:688.732 - 0.023ms returns 0x08012124
T3A04 003:688.747 JLINK_ReadReg(XPSR)
T3A04 003:688.762 - 0.021ms returns 0x61000000
T3A04 003:688.818 JLINK_HasError()
T3A04 003:688.837 JLINK_ClrBPEx(BPHandle = 0x00000001)
T3A04 003:688.849 - 0.017ms returns 0x00
T3A04 003:688.861 JLINK_HasError()
T3A04 003:688.874 JLINK_ClrBPEx(BPHandle = 0x00000002)
T3A04 003:688.890 - 0.024ms returns 0x00
T3A04 003:688.905 JLINK_HasError()
T3A04 003:688.916 JLINK_ClrBPEx(BPHandle = 0x00000003)
T3A04 003:688.927 - 0.016ms returns 0x00
T3A04 003:688.938 JLINK_HasError()
T3A04 003:688.949 JLINK_ClrBPEx(BPHandle = 0x00000004)
T3A04 003:688.962 - 0.019ms returns 0x00
T3A04 003:688.977 JLINK_HasError()
T3A04 003:688.992 JLINK_ClrBPEx(BPHandle = 0x00000005)
T3A04 003:689.006 - 0.021ms returns 0x00
T3A04 003:689.021 JLINK_HasError()
T3A04 003:689.034 JLINK_HasError()
T3A04 003:689.049 JLINK_ReadMemU32(0xE000ED30, 0x1 Items)
T3A04 003:689.071   CPU_ReadMem(4 bytes @ 0xE000ED30)
T3A04 003:689.805   Data:  02 00 00 00
T3A04 003:689.843 - 0.800ms returns 1 (0x1)
T3A04 003:689.861 JLINK_ReadMemU32(0xE0001028, 0x1 Items)
T3A04 003:689.885   CPU_ReadMem(4 bytes @ 0xE0001028)
T3A04 003:690.550   Data:  00 00 00 00
T3A04 003:690.603   Debug reg: DWT_FUNC[0]
T3A04 003:690.621 - 0.766ms returns 1 (0x1)
T3A04 003:690.642 JLINK_ReadMemU32(0xE0001038, 0x1 Items)
T3A04 003:690.662   CPU_ReadMem(4 bytes @ 0xE0001038)
T3A04 003:691.347   Data:  00 02 00 00
T3A04 003:691.389   Debug reg: DWT_FUNC[1]
T3A04 003:691.411 - 0.776ms returns 1 (0x1)
T3A04 003:691.431 JLINK_ReadMemU32(0xE0001048, 0x1 Items)
T3A04 003:691.458   CPU_ReadMem(4 bytes @ 0xE0001048)
T3A04 003:692.148   Data:  00 00 00 00
T3A04 003:692.179   Debug reg: DWT_FUNC[2]
T3A04 003:692.194 - 0.768ms returns 1 (0x1)
T3A04 003:692.210 JLINK_ReadMemU32(0xE0001058, 0x1 Items)
T3A04 003:692.227   CPU_ReadMem(4 bytes @ 0xE0001058)
T3A04 003:692.885   Data:  00 00 00 00
T3A04 003:692.912   Debug reg: DWT_FUNC[3]
T3A04 003:692.927 - 0.722ms returns 1 (0x1)
T3A04 003:693.037 JLINK_HasError()
T3A04 003:693.053 JLINK_ReadReg(R0)
T3A04 003:693.066 - 0.018ms returns 0x08012125
T3A04 003:693.078 JLINK_ReadReg(R1)
T3A04 003:693.089 - 0.016ms returns 0x10003D28
T3A04 003:693.100 JLINK_ReadReg(R2)
T3A04 003:693.111 - 0.016ms returns 0x00000000
T3A04 003:693.122 JLINK_ReadReg(R3)
T3A04 003:693.133 - 0.015ms returns 0x0800BFF1
T3A04 003:693.144 JLINK_ReadReg(R4)
T3A04 003:693.154 - 0.014ms returns 0x08023B40
T3A04 003:693.165 JLINK_ReadReg(R5)
T3A04 003:693.176 - 0.016ms returns 0x08023B40
T3A04 003:693.187 JLINK_ReadReg(R6)
T3A04 003:693.198 - 0.015ms returns 0x00000000
T3A04 003:693.208 JLINK_ReadReg(R7)
T3A04 003:693.219 - 0.015ms returns 0x00000000
T3A04 003:693.230 JLINK_ReadReg(R8)
T3A04 003:693.240 - 0.015ms returns 0x00000000
T3A04 003:693.251 JLINK_ReadReg(R9)
T3A04 003:693.262 - 0.015ms returns 0x00000000
T3A04 003:693.273 JLINK_ReadReg(R10)
T3A04 003:693.283 - 0.015ms returns 0x00000000
T3A04 003:693.294 JLINK_ReadReg(R11)
T3A04 003:693.304 - 0.015ms returns 0x00000000
T3A04 003:693.316 JLINK_ReadReg(R12)
T3A04 003:693.326 - 0.014ms returns 0x00000000
T3A04 003:693.337 JLINK_ReadReg(R13 (SP))
T3A04 003:693.347 - 0.015ms returns 0x10003D28
T3A04 003:693.358 JLINK_ReadReg(R14)
T3A04 003:693.369 - 0.015ms returns 0x08000D25
T3A04 003:693.380 JLINK_ReadReg(R15 (PC))
T3A04 003:693.390 - 0.015ms returns 0x08012124
T3A04 003:693.402 JLINK_ReadReg(XPSR)
T3A04 003:693.412 - 0.014ms returns 0x61000000
T3A04 003:693.423 JLINK_ReadReg(MSP)
T3A04 003:693.439 - 0.021ms returns 0x10003D28
T3A04 003:693.455 JLINK_ReadReg(PSP)
T3A04 003:693.469 - 0.018ms returns 0x00000000
T3A04 003:693.480 JLINK_ReadReg(CFBP)
T3A04 003:693.491 - 0.015ms returns 0x00000000
T3A04 003:693.502 JLINK_ReadReg(FPSCR)
T3A04 003:706.875 - 13.403ms returns 0x00000000
T3A04 003:706.917 JLINK_ReadReg(FPS0)
T3A04 003:706.931 - 0.019ms returns 0x00000000
T3A04 003:706.943 JLINK_ReadReg(FPS1)
T3A04 003:706.953 - 0.016ms returns 0x00000000
T3A04 003:706.966 JLINK_ReadReg(FPS2)
T3A04 003:706.978 - 0.017ms returns 0x00000000
T3A04 003:706.990 JLINK_ReadReg(FPS3)
T3A04 003:707.000 - 0.015ms returns 0x00000000
T3A04 003:707.011 JLINK_ReadReg(FPS4)
T3A04 003:707.021 - 0.016ms returns 0x00000000
T3A04 003:707.033 JLINK_ReadReg(FPS5)
T3A04 003:707.043 - 0.015ms returns 0x00000000
T3A04 003:707.055 JLINK_ReadReg(FPS6)
T3A04 003:707.065 - 0.014ms returns 0x00000000
T3A04 003:707.076 JLINK_ReadReg(FPS7)
T3A04 003:707.086 - 0.015ms returns 0x00000000
T3A04 003:707.098 JLINK_ReadReg(FPS8)
T3A04 003:707.108 - 0.016ms returns 0x00000000
T3A04 003:707.120 JLINK_ReadReg(FPS9)
T3A04 003:707.130 - 0.015ms returns 0x00000000
T3A04 003:707.141 JLINK_ReadReg(FPS10)
T3A04 003:707.152 - 0.014ms returns 0x00000000
T3A04 003:707.163 JLINK_ReadReg(FPS11)
T3A04 003:707.173 - 0.016ms returns 0x00000000
T3A04 003:707.184 JLINK_ReadReg(FPS12)
T3A04 003:707.195 - 0.015ms returns 0x00000000
T3A04 003:707.206 JLINK_ReadReg(FPS13)
T3A04 003:707.216 - 0.015ms returns 0x00000000
T3A04 003:707.227 JLINK_ReadReg(FPS14)
T3A04 003:707.237 - 0.014ms returns 0x00000000
T3A04 003:707.248 JLINK_ReadReg(FPS15)
T3A04 003:707.258 - 0.015ms returns 0x00000000
T3A04 003:707.269 JLINK_ReadReg(FPS16)
T3A04 003:707.280 - 0.016ms returns 0x00000000
T3A04 003:707.291 JLINK_ReadReg(FPS17)
T3A04 003:707.302 - 0.015ms returns 0x00000000
T3A04 003:707.313 JLINK_ReadReg(FPS18)
T3A04 003:707.323 - 0.015ms returns 0x00000000
T3A04 003:707.334 JLINK_ReadReg(FPS19)
T3A04 003:707.345 - 0.016ms returns 0x00000000
T3A04 003:707.356 JLINK_ReadReg(FPS20)
T3A04 003:707.367 - 0.015ms returns 0x00000000
T3A04 003:707.377 JLINK_ReadReg(FPS21)
T3A04 003:707.387 - 0.015ms returns 0x00000000
T3A04 003:707.399 JLINK_ReadReg(FPS22)
T3A04 003:707.409 - 0.014ms returns 0x00000000
T3A04 003:707.420 JLINK_ReadReg(FPS23)
T3A04 003:707.430 - 0.015ms returns 0x00000000
T3A04 003:707.441 JLINK_ReadReg(FPS24)
T3A04 003:707.451 - 0.015ms returns 0x00000000
T3A04 003:707.462 JLINK_ReadReg(FPS25)
T3A04 003:707.473 - 0.015ms returns 0x00000000
T3A04 003:707.484 JLINK_ReadReg(FPS26)
T3A04 003:707.495 - 0.015ms returns 0x00000000
T3A04 003:707.506 JLINK_ReadReg(FPS27)
T3A04 003:707.516 - 0.015ms returns 0x00000000
T3A04 003:707.528 JLINK_ReadReg(FPS28)
T3A04 003:707.538 - 0.015ms returns 0x00000000
T3A04 003:707.549 JLINK_ReadReg(FPS29)
T3A04 003:707.560 - 0.015ms returns 0x00000000
T3A04 003:707.571 JLINK_ReadReg(FPS30)
T3A04 003:707.581 - 0.014ms returns 0x00000000
T3A04 003:707.592 JLINK_ReadReg(FPS31)
T3A04 003:707.602 - 0.016ms returns 0x00000000
T3A04 003:707.617 JLINK_ReadMemEx(0x2000003C, 0x4 Bytes, Flags = 0x02000000)
T3A04 003:707.638   CPU_ReadMem(64 bytes @ 0x20000000)
T3A04 003:709.376    -- Updating C cache (64 bytes @ 0x20000000)
T3A04 003:709.400    -- Read from C cache (4 bytes @ 0x2000003C)
T3A04 003:709.415   Data:  00 00 00 00
T3A04 003:709.430 - 1.817ms returns 4 (0x4)
T3A04 005:578.215 JLINK_ReadMemEx(0x08012124, 0x2 Bytes, Flags = 0x02000000)
T3A04 005:578.266   CPU_ReadMem(64 bytes @ 0x08012100)
T3A04 005:580.054    -- Updating C cache (64 bytes @ 0x08012100)
T3A04 005:580.102    -- Read from C cache (2 bytes @ 0x08012124)
T3A04 005:580.126   Data:  F1 F7
T3A04 005:580.150 - 1.943ms returns 2 (0x2)
T3A04 005:580.174 JLINK_HasError()
T3A04 005:580.195 JLINK_SetBPEx(Addr = 0x0800662A, Type = 0xFFFFFFF2)
T3A04 005:580.217 - 0.030ms returns 0x00000006
T3A04 005:580.235 JLINK_HasError()
T3A04 005:580.253 JLINK_SetBPEx(Addr = 0x08018834, Type = 0xFFFFFFF2)
T3A04 005:580.271 - 0.026ms returns 0x00000007
T3A04 005:580.289 JLINK_HasError()
T3A04 005:580.318 JLINK_SetBPEx(Addr = 0x08007834, Type = 0xFFFFFFF2)
T3A04 005:580.337 - 0.028ms returns 0x00000008
T3A04 005:580.356 JLINK_HasError()
T3A04 005:580.373 JLINK_SetBPEx(Addr = 0x08015282, Type = 0xFFFFFFF2)
T3A04 005:580.393 - 0.028ms returns 0x00000009
T3A04 005:580.430 JLINK_HasError()
T3A04 005:580.450 JLINK_HasError()
T3A04 005:580.468 JLINK_Go()
T3A04 005:581.205   CPU_WriteMem(4 bytes @ 0xE0002000)
T3A04 005:581.902   CPU_WriteMem(4 bytes @ 0xE0002000)
T3A04 005:582.583   CPU_WriteMem(4 bytes @ 0xE0002000)
T3A04 005:583.258   CPU_WriteMem(4 bytes @ 0xE0002000)
T3A04 005:583.934   CPU_ReadMem(4 bytes @ 0xE0001000)
T3A04 005:584.579   CPU_WriteMem(4 bytes @ 0xE0002008)
T3A04 005:584.603   CPU_WriteMem(4 bytes @ 0xE000200C)
T3A04 005:584.621   CPU_WriteMem(4 bytes @ 0xE0002010)
T3A04 005:584.638   CPU_WriteMem(4 bytes @ 0xE0002014)
T3A04 005:584.654   CPU_WriteMem(4 bytes @ 0xE0002018)
T3A04 005:588.506 - 8.073ms
T3A04 005:689.453 JLINK_HasError()
T3A04 005:689.513 JLINK_IsHalted()
T3A04 005:690.255 - 0.759ms returns FALSE
T3A04 005:790.831 JLINK_HasError()
T3A04 005:790.895 JLINK_IsHalted()
T3A04 005:791.662 - 0.806ms returns FALSE
T3A04 005:892.362 JLINK_HasError()
T3A04 005:892.402 JLINK_IsHalted()
T3A04 005:893.103 - 0.714ms returns FALSE
T3A04 005:993.532 JLINK_HasError()
T3A04 005:993.568 JLINK_IsHalted()
T3A04 005:994.298 - 0.748ms returns FALSE
T3A04 006:094.762 JLINK_HasError()
T3A04 006:094.834 JLINK_IsHalted()
T3A04 006:095.588 - 0.777ms returns FALSE
T3A04 006:195.719 JLINK_HasError()
T3A04 006:195.786 JLINK_HasError()
T3A04 006:195.821 JLINK_ReadMemU32(0xE0001004, 0x1 Items)
T3A04 006:195.863   CPU_ReadMem(4 bytes @ 0xE0001004)
T3A04 006:197.046   Data:  5A 0A 18 06
T3A04 006:197.077   Debug reg: DWT_CYCCNT
T3A04 006:197.093 - 1.279ms returns 1 (0x1)
T3A04 006:198.210 JLINK_IsHalted()
T3A04 006:198.925 - 0.733ms returns FALSE
T3A04 006:299.663 JLINK_HasError()
T3A04 006:299.730 JLINK_IsHalted()
T3A04 006:300.541 - 0.829ms returns FALSE
T3A04 006:400.947 JLINK_HasError()
T3A04 006:400.986 JLINK_IsHalted()
T3A04 006:401.835 - 0.865ms returns FALSE
T3A04 006:501.984 JLINK_HasError()
T3A04 006:502.024 JLINK_IsHalted()
T3A04 006:502.724 - 0.712ms returns FALSE
T3A04 006:603.111 JLINK_HasError()
T3A04 006:603.172 JLINK_IsHalted()
T3A04 006:603.901 - 0.747ms returns FALSE
T3A04 006:704.455 JLINK_HasError()
T3A04 006:704.502 JLINK_HasError()
T3A04 006:704.516 JLINK_ReadMemU32(0xE0001004, 0x1 Items)
T3A04 006:704.611   Data:  5A 0A 18 06
T3A04 006:704.636   Debug reg: DWT_CYCCNT
T3A04 006:704.652 - 0.141ms returns 1 (0x1)
T3A04 006:705.799 JLINK_IsHalted()
T3A04 006:706.651 - 0.882ms returns FALSE
T3A04 006:807.503 JLINK_HasError()
T3A04 006:807.554 JLINK_IsHalted()
T3A04 006:808.279 - 0.741ms returns FALSE
T3A04 006:909.338 JLINK_HasError()
T3A04 006:909.391 JLINK_IsHalted()
T3A04 006:910.189 - 0.814ms returns FALSE
T3A04 007:010.490 JLINK_HasError()
T3A04 007:010.530 JLINK_IsHalted()
T3A04 007:011.309 - 0.814ms returns FALSE
T3A04 007:111.700 JLINK_HasError()
T3A04 007:111.753 JLINK_IsHalted()
T3A04 007:112.480 - 0.747ms returns FALSE
T3A04 007:212.691 JLINK_HasError()
T3A04 007:212.737 JLINK_HasError()
T3A04 007:212.750 JLINK_ReadMemU32(0xE0001004, 0x1 Items)
T3A04 007:212.775   Data:  5A 0A 18 06
T3A04 007:212.796   Debug reg: DWT_CYCCNT
T3A04 007:212.813 - 0.070ms returns 1 (0x1)
T3A04 007:216.842 JLINK_IsHalted()
T3A04 007:217.599 - 0.770ms returns FALSE
T3A04 007:318.470 JLINK_HasError()
T3A04 007:318.511 JLINK_IsHalted()
T3A04 007:319.364 - 0.869ms returns FALSE
T3A04 007:420.385 JLINK_HasError()
T3A04 007:420.425 JLINK_IsHalted()
T3A04 007:421.136 - 0.728ms returns FALSE
T3A04 007:521.756 JLINK_HasError()
T3A04 007:521.814 JLINK_IsHalted()
T3A04 007:522.552 - 0.756ms returns FALSE
T3A04 007:623.015 JLINK_HasError()
T3A04 007:623.063 JLINK_IsHalted()
T3A04 007:623.839 - 0.793ms returns FALSE
T3A04 007:724.675 JLINK_HasError()
T3A04 007:724.713 JLINK_IsHalted()
T3A04 007:725.417 - 0.781ms returns FALSE
T3A04 007:825.742 JLINK_HasError()
T3A04 007:825.780 JLINK_HasError()
T3A04 007:825.793 JLINK_ReadMemU32(0xE0001004, 0x1 Items)
T3A04 007:825.816   Data:  5A 0A 18 06
T3A04 007:825.833   Debug reg: DWT_CYCCNT
T3A04 007:825.849 - 0.061ms returns 1 (0x1)
T3A04 007:826.878 JLINK_IsHalted()
T3A04 007:835.367 - 8.518ms returns TRUE
T3A04 007:835.408 JLINK_HasError()
T3A04 007:835.421 JLINK_Halt()
T3A04 007:835.433 - 0.016ms returns 0x00
T3A04 007:835.445 JLINK_IsHalted()
T3A04 007:835.455 - 0.016ms returns TRUE
T3A04 007:835.468 JLINK_IsHalted()
T3A04 007:835.479 - 0.016ms returns TRUE
T3A04 007:835.490 JLINK_IsHalted()
T3A04 007:835.501 - 0.016ms returns TRUE
T3A04 007:835.514 JLINK_HasError()
T3A04 007:835.527 JLINK_ReadReg(R15 (PC))
T3A04 007:835.540 - 0.018ms returns 0x08015282
T3A04 007:835.552 JLINK_ReadReg(XPSR)
T3A04 007:835.564 - 0.017ms returns 0x21000000
T3A04 007:835.580 JLINK_HasError()
T3A04 007:835.592 JLINK_ClrBPEx(BPHandle = 0x00000006)
T3A04 007:835.604 - 0.016ms returns 0x00
T3A04 007:835.616 JLINK_HasError()
T3A04 007:835.628 JLINK_ClrBPEx(BPHandle = 0x00000007)
T3A04 007:835.639 - 0.017ms returns 0x00
T3A04 007:835.651 JLINK_HasError()
T3A04 007:835.663 JLINK_ClrBPEx(BPHandle = 0x00000008)
T3A04 007:835.674 - 0.017ms returns 0x00
T3A04 007:835.687 JLINK_HasError()
T3A04 007:835.701 JLINK_ClrBPEx(BPHandle = 0x00000009)
T3A04 007:835.716 - 0.020ms returns 0x00
T3A04 007:835.728 JLINK_HasError()
T3A04 007:835.740 JLINK_HasError()
T3A04 007:835.752 JLINK_ReadMemU32(0xE000ED30, 0x1 Items)
T3A04 007:835.773   CPU_ReadMem(4 bytes @ 0xE000ED30)
T3A04 007:836.425   Data:  02 00 00 00
T3A04 007:836.452 - 0.704ms returns 1 (0x1)
T3A04 007:836.466 JLINK_ReadMemU32(0xE0001028, 0x1 Items)
T3A04 007:836.482   CPU_ReadMem(4 bytes @ 0xE0001028)
T3A04 007:837.150   Data:  00 00 00 00
T3A04 007:837.182   Debug reg: DWT_FUNC[0]
T3A04 007:837.202 - 0.743ms returns 1 (0x1)
T3A04 007:837.220 JLINK_ReadMemU32(0xE0001038, 0x1 Items)
T3A04 007:837.242   CPU_ReadMem(4 bytes @ 0xE0001038)
T3A04 007:837.916   Data:  00 02 00 00
T3A04 007:837.952   Debug reg: DWT_FUNC[1]
T3A04 007:837.974 - 0.761ms returns 1 (0x1)
T3A04 007:837.993 JLINK_ReadMemU32(0xE0001048, 0x1 Items)
T3A04 007:838.017   CPU_ReadMem(4 bytes @ 0xE0001048)
T3A04 007:838.672   Data:  00 00 00 00
T3A04 007:838.714   Debug reg: DWT_FUNC[2]
T3A04 007:838.736 - 0.748ms returns 1 (0x1)
T3A04 007:838.751 JLINK_ReadMemU32(0xE0001058, 0x1 Items)
T3A04 007:838.771   CPU_ReadMem(4 bytes @ 0xE0001058)
T3A04 007:839.426   Data:  00 00 00 00
T3A04 007:839.452   Debug reg: DWT_FUNC[3]
T3A04 007:839.467 - 0.721ms returns 1 (0x1)
T3A04 007:839.579 JLINK_HasError()
T3A04 007:839.595 JLINK_ReadReg(R0)
T3A04 007:839.609 - 0.020ms returns 0x200001EC
T3A04 007:839.622 JLINK_ReadReg(R1)
T3A04 007:839.633 - 0.017ms returns 0x00000002
T3A04 007:839.645 JLINK_ReadReg(R2)
T3A04 007:839.656 - 0.016ms returns 0xFFFFFFFF
T3A04 007:839.668 JLINK_ReadReg(R3)
T3A04 007:839.680 - 0.017ms returns 0x00000039
T3A04 007:839.695 JLINK_ReadReg(R4)
T3A04 007:839.707 - 0.017ms returns 0x00000005
T3A04 007:839.719 JLINK_ReadReg(R5)
T3A04 007:839.731 - 0.017ms returns 0x2000FFC0
T3A04 007:839.743 JLINK_ReadReg(R6)
T3A04 007:839.753 - 0.016ms returns 0x0000000E
T3A04 007:839.766 JLINK_ReadReg(R7)
T3A04 007:839.777 - 0.016ms returns 0x2000FFC0
T3A04 007:839.789 JLINK_ReadReg(R8)
T3A04 007:839.801 - 0.017ms returns 0x00000039
T3A04 007:839.812 JLINK_ReadReg(R9)
T3A04 007:839.824 - 0.016ms returns 0x0000000E
T3A04 007:839.835 JLINK_ReadReg(R10)
T3A04 007:839.846 - 0.016ms returns 0x10001B64
T3A04 007:839.858 JLINK_ReadReg(R11)
T3A04 007:839.870 - 0.016ms returns 0x00000000
T3A04 007:839.881 JLINK_ReadReg(R12)
T3A04 007:839.893 - 0.017ms returns 0x00000000
T3A04 007:839.905 JLINK_ReadReg(R13 (SP))
T3A04 007:839.917 - 0.017ms returns 0x2000FED8
T3A04 007:839.928 JLINK_ReadReg(R14)
T3A04 007:839.939 - 0.016ms returns 0x0800CB73
T3A04 007:839.951 JLINK_ReadReg(R15 (PC))
T3A04 007:839.963 - 0.016ms returns 0x08015282
T3A04 007:839.979 JLINK_ReadReg(XPSR)
T3A04 007:839.994 - 0.020ms returns 0x21000000
T3A04 007:840.006 JLINK_ReadReg(MSP)
T3A04 007:840.018 - 0.016ms returns 0x10003D08
T3A04 007:840.029 JLINK_ReadReg(PSP)
T3A04 007:840.040 - 0.016ms returns 0x2000FED8
T3A04 007:840.052 JLINK_ReadReg(CFBP)
T3A04 007:840.064 - 0.016ms returns 0x02000000
T3A04 007:840.075 JLINK_ReadReg(FPSCR)
T3A04 007:853.451 - 13.405ms returns 0x00000000
T3A04 007:853.497 JLINK_ReadReg(FPS0)
T3A04 007:853.513 - 0.021ms returns 0x00000000
T3A04 007:853.528 JLINK_ReadReg(FPS1)
T3A04 007:853.540 - 0.017ms returns 0x00000000
T3A04 007:853.555 JLINK_ReadReg(FPS2)
T3A04 007:853.567 - 0.017ms returns 0x00000000
T3A04 007:853.581 JLINK_ReadReg(FPS3)
T3A04 007:853.593 - 0.017ms returns 0x00000000
T3A04 007:853.607 JLINK_ReadReg(FPS4)
T3A04 007:853.618 - 0.017ms returns 0x00000000
T3A04 007:853.633 JLINK_ReadReg(FPS5)
T3A04 007:853.644 - 0.016ms returns 0x00000000
T3A04 007:853.659 JLINK_ReadReg(FPS6)
T3A04 007:853.671 - 0.016ms returns 0x00000000
T3A04 007:853.685 JLINK_ReadReg(FPS7)
T3A04 007:853.700 - 0.022ms returns 0x00000000
T3A04 007:853.720 JLINK_ReadReg(FPS8)
T3A04 007:853.735 - 0.023ms returns 0x00000000
T3A04 007:853.753 JLINK_ReadReg(FPS9)
T3A04 007:853.769 - 0.023ms returns 0x00000000
T3A04 007:853.787 JLINK_ReadReg(FPS10)
T3A04 007:853.802 - 0.022ms returns 0x00000000
T3A04 007:853.819 JLINK_ReadReg(FPS11)
T3A04 007:853.831 - 0.017ms returns 0x00000000
T3A04 007:853.846 JLINK_ReadReg(FPS12)
T3A04 007:853.858 - 0.017ms returns 0x00000000
T3A04 007:853.872 JLINK_ReadReg(FPS13)
T3A04 007:853.883 - 0.017ms returns 0x00000000
T3A04 007:853.898 JLINK_ReadReg(FPS14)
T3A04 007:853.910 - 0.017ms returns 0x00000000
T3A04 007:853.925 JLINK_ReadReg(FPS15)
T3A04 007:853.936 - 0.016ms returns 0x00000000
T3A04 007:853.951 JLINK_ReadReg(FPS16)
T3A04 007:853.963 - 0.017ms returns 0x00000000
T3A04 007:853.977 JLINK_ReadReg(FPS17)
T3A04 007:853.989 - 0.017ms returns 0x00000000
T3A04 007:854.004 JLINK_ReadReg(FPS18)
T3A04 007:854.016 - 0.017ms returns 0x00000000
T3A04 007:854.030 JLINK_ReadReg(FPS19)
T3A04 007:854.042 - 0.017ms returns 0x00000000
T3A04 007:854.056 JLINK_ReadReg(FPS20)
T3A04 007:854.068 - 0.017ms returns 0x00000000
T3A04 007:854.083 JLINK_ReadReg(FPS21)
T3A04 007:854.094 - 0.017ms returns 0x00000000
T3A04 007:854.109 JLINK_ReadReg(FPS22)
T3A04 007:854.124 - 0.022ms returns 0x00000000
T3A04 007:854.141 JLINK_ReadReg(FPS23)
T3A04 007:854.153 - 0.017ms returns 0x00000000
T3A04 007:854.168 JLINK_ReadReg(FPS24)
T3A04 007:854.184 - 0.023ms returns 0x00000000
T3A04 007:854.204 JLINK_ReadReg(FPS25)
T3A04 007:854.221 - 0.024ms returns 0x00000000
T3A04 007:854.241 JLINK_ReadReg(FPS26)
T3A04 007:854.259 - 0.025ms returns 0x00000000
T3A04 007:854.279 JLINK_ReadReg(FPS27)
T3A04 007:854.296 - 0.025ms returns 0x00000000
T3A04 007:854.317 JLINK_ReadReg(FPS28)
T3A04 007:854.332 - 0.021ms returns 0x00000000
T3A04 007:854.347 JLINK_ReadReg(FPS29)
T3A04 007:854.359 - 0.017ms returns 0x00000000
T3A04 007:854.374 JLINK_ReadReg(FPS30)
T3A04 007:854.385 - 0.016ms returns 0x00000000
T3A04 007:854.400 JLINK_ReadReg(FPS31)
T3A04 007:854.412 - 0.016ms returns 0x00000000
T3A04 007:854.474 JLINK_ReadMemEx(0x2000003C, 0x4 Bytes, Flags = 0x02000000)
T3A04 007:854.518   CPU_ReadMem(64 bytes @ 0x20000000)
T3A04 007:856.398    -- Updating C cache (64 bytes @ 0x20000000)
T3A04 007:856.423    -- Read from C cache (4 bytes @ 0x2000003C)
T3A04 007:856.439   Data:  0D 00 00 00
T3A04 007:856.455 - 1.987ms returns 4 (0x4)
T3A04 007:856.471 JLINK_ReadMemEx(0x2000002C, 0x4 Bytes, Flags = 0x02000000)
T3A04 007:856.487    -- Read from C cache (4 bytes @ 0x2000002C)
T3A04 007:856.502   Data:  50 FF 00 20
T3A04 007:856.517 - 0.051ms returns 4 (0x4)
T5BA4 007:856.916 JLINK_ReadMemEx(0x2000FEDC, 0x4 Bytes, Flags = 0x02000000)
T5BA4 007:856.947   CPU_ReadMem(64 bytes @ 0x2000FEC0)
T5BA4 007:858.787    -- Updating C cache (64 bytes @ 0x2000FEC0)
T5BA4 007:858.809    -- Read from C cache (4 bytes @ 0x2000FEDC)
T5BA4 007:858.833   Data:  05 CB 00 08
T5BA4 007:858.848 - 1.938ms returns 4 (0x4)
T5BA4 007:858.867 JLINK_ReadMemEx(0x2000FED8, 0x4 Bytes, Flags = 0x02000000)
T5BA4 007:858.883    -- Read from C cache (4 bytes @ 0x2000FED8)
T5BA4 007:858.899   Data:  00 00 00 00
T5BA4 007:858.914 - 0.052ms returns 4 (0x4)
T5BA4 007:858.926 JLINK_ReadMemEx(0x2000FEDC, 0x4 Bytes, Flags = 0x02000000)
T5BA4 007:858.940    -- Read from C cache (4 bytes @ 0x2000FEDC)
T5BA4 007:858.956   Data:  05 CB 00 08
T5BA4 007:858.971 - 0.050ms returns 4 (0x4)
T5BA4 007:858.986 JLINK_ReadMemEx(0x2000FEFC, 0x4 Bytes, Flags = 0x02000000)
T5BA4 007:858.999    -- Read from C cache (4 bytes @ 0x2000FEFC)
T5BA4 007:859.016   Data:  B7 E6 00 08
T5BA4 007:859.032 - 0.051ms returns 4 (0x4)
T5BA4 007:859.045 JLINK_ReadMemEx(0x2000FEE0, 0x4 Bytes, Flags = 0x02000000)
T5BA4 007:859.058    -- Read from C cache (4 bytes @ 0x2000FEE0)
T5BA4 007:859.075   Data:  C0 FF 00 20
T5BA4 007:859.090 - 0.050ms returns 4 (0x4)
T5BA4 007:859.103 JLINK_ReadMemEx(0x2000FEE4, 0x4 Bytes, Flags = 0x02000000)
T5BA4 007:859.115    -- Read from C cache (4 bytes @ 0x2000FEE4)
T5BA4 007:859.131   Data:  0E 00 00 00
T5BA4 007:859.147 - 0.049ms returns 4 (0x4)
T5BA4 007:859.158 JLINK_ReadMemEx(0x2000FEE8, 0x4 Bytes, Flags = 0x02000000)
T5BA4 007:859.171    -- Read from C cache (4 bytes @ 0x2000FEE8)
T5BA4 007:859.187   Data:  0E 00 00 00
T5BA4 007:859.203 - 0.049ms returns 4 (0x4)
T5BA4 007:859.215 JLINK_ReadMemEx(0x2000FEEC, 0x4 Bytes, Flags = 0x02000000)
T5BA4 007:859.241    -- Read from C cache (4 bytes @ 0x2000FEEC)
T5BA4 007:859.257   Data:  00 00 00 00
T5BA4 007:859.272 - 0.061ms returns 4 (0x4)
T5BA4 007:859.283 JLINK_ReadMemEx(0x2000FEF0, 0x4 Bytes, Flags = 0x02000000)
T5BA4 007:859.295    -- Read from C cache (4 bytes @ 0x2000FEF0)
T5BA4 007:859.311   Data:  00 00 00 00
T5BA4 007:859.326 - 0.048ms returns 4 (0x4)
T5BA4 007:859.338 JLINK_ReadMemEx(0x2000FEF4, 0x4 Bytes, Flags = 0x02000000)
T5BA4 007:859.350    -- Read from C cache (4 bytes @ 0x2000FEF4)
T5BA4 007:859.365   Data:  00 00 00 00
T5BA4 007:859.380 - 0.047ms returns 4 (0x4)
T5BA4 007:859.392 JLINK_ReadMemEx(0x2000FEF8, 0x4 Bytes, Flags = 0x02000000)
T5BA4 007:859.404    -- Read from C cache (4 bytes @ 0x2000FEF8)
T5BA4 007:859.420   Data:  00 00 00 00
T5BA4 007:859.435 - 0.048ms returns 4 (0x4)
T5BA4 007:859.447 JLINK_ReadMemEx(0x2000FEFC, 0x4 Bytes, Flags = 0x02000000)
T5BA4 007:859.458    -- Read from C cache (4 bytes @ 0x2000FEFC)
T5BA4 007:859.474   Data:  B7 E6 00 08
T5BA4 007:859.489 - 0.047ms returns 4 (0x4)
T5BA4 007:859.501 JLINK_ReadMemEx(0x2000FF0C, 0x4 Bytes, Flags = 0x02000000)
T5BA4 007:859.515   CPU_ReadMem(64 bytes @ 0x2000FF00)
T5BA4 007:861.464    -- Updating C cache (64 bytes @ 0x2000FF00)
T5BA4 007:861.488    -- Read from C cache (4 bytes @ 0x2000FF0C)
T5BA4 007:861.503   Data:  E9 15 02 08
T5BA4 007:861.519 - 2.023ms returns 4 (0x4)
T5BA4 007:861.833 JLINK_ReadMemEx(0x2000FF00, 0x4 Bytes, Flags = 0x02000000)
T5BA4 007:861.854    -- Read from C cache (4 bytes @ 0x2000FF00)
T5BA4 007:861.869   Data:  C0 FF 00 20
T5BA4 007:861.884 - 0.056ms returns 4 (0x4)
T5BA4 007:861.897 JLINK_ReadMemEx(0x2000FF04, 0x4 Bytes, Flags = 0x02000000)
T5BA4 007:861.909    -- Read from C cache (4 bytes @ 0x2000FF04)
T5BA4 007:861.925   Data:  00 00 00 00
T5BA4 007:861.941 - 0.049ms returns 4 (0x4)
T5BA4 007:861.952 JLINK_ReadMemEx(0x2000FF08, 0x4 Bytes, Flags = 0x02000000)
T5BA4 007:861.965    -- Read from C cache (4 bytes @ 0x2000FF08)
T5BA4 007:861.981   Data:  0E 00 00 00
T5BA4 007:861.996 - 0.048ms returns 4 (0x4)
T5BA4 007:862.008 JLINK_ReadMemEx(0x2000FF0C, 0x4 Bytes, Flags = 0x02000000)
T5BA4 007:862.020    -- Read from C cache (4 bytes @ 0x2000FF0C)
T5BA4 007:862.035   Data:  E9 15 02 08
T5BA4 007:862.051 - 0.048ms returns 4 (0x4)
T5BA4 007:866.076 JLINK_ReadMemEx(0x200001EA, 0x1 Bytes, Flags = 0x02000000)
T5BA4 007:866.129   CPU_ReadMem(64 bytes @ 0x200001C0)
T5BA4 007:867.903    -- Updating C cache (64 bytes @ 0x200001C0)
T5BA4 007:867.934    -- Read from C cache (1 bytes @ 0x200001EA)
T5BA4 007:867.957   Data:  00
T5BA4 007:867.973 - 1.902ms returns 1 (0x1)
T5BA4 007:869.538 JLINK_ReadMemEx(0x200001EA, 0x1 Bytes, Flags = 0x02000000)
T5BA4 007:869.568    -- Read from C cache (1 bytes @ 0x200001EA)
T5BA4 007:869.584   Data:  00
T5BA4 007:869.600 - 0.067ms returns 1 (0x1)
T3A04 012:509.825 JLINK_ReadMemEx(0x08015282, 0x2 Bytes, Flags = 0x02000000)
T3A04 012:509.880   CPU_ReadMem(64 bytes @ 0x08015280)
T3A04 012:511.729    -- Updating C cache (64 bytes @ 0x08015280)
T3A04 012:511.759    -- Read from C cache (2 bytes @ 0x08015282)
T3A04 012:511.775   Data:  5B 48
T3A04 012:511.792 - 1.973ms returns 2 (0x2)
T3A04 012:511.807 JLINK_HasError()
T3A04 012:511.821 JLINK_SetBPEx(Addr = 0x0800662A, Type = 0xFFFFFFF2)
T3A04 012:511.835 - 0.019ms returns 0x0000000A
T3A04 012:511.848 JLINK_HasError()
T3A04 012:511.861 JLINK_SetBPEx(Addr = 0x08018834, Type = 0xFFFFFFF2)
T3A04 012:511.873 - 0.017ms returns 0x0000000B
T3A04 012:511.885 JLINK_HasError()
T3A04 012:511.896 JLINK_SetBPEx(Addr = 0x08007834, Type = 0xFFFFFFF2)
T3A04 012:511.909 - 0.017ms returns 0x0000000C
T3A04 012:511.921 JLINK_HasError()
T3A04 012:511.932 JLINK_HasError()
T3A04 012:511.945 JLINK_Go()
T3A04 012:512.695   CPU_WriteMem(4 bytes @ 0xE0002000)
T3A04 012:513.449   CPU_WriteMem(4 bytes @ 0xE0002000)
T3A04 012:514.263   CPU_WriteMem(4 bytes @ 0xE0002000)
T3A04 012:514.999   CPU_ReadMem(4 bytes @ 0xE0001000)
T3A04 012:515.819   CPU_WriteMem(4 bytes @ 0xE0002014)
T3A04 012:517.688 - 5.761ms
T3A04 012:617.902 JLINK_HasError()
T3A04 012:617.937 JLINK_IsHalted()
T3A04 012:618.629 - 0.703ms returns FALSE
T3A04 012:719.381 JLINK_HasError()
T3A04 012:719.431 JLINK_IsHalted()
T3A04 012:720.241 - 0.838ms returns FALSE
T3A04 012:820.769 JLINK_HasError()
T3A04 012:820.809 JLINK_IsHalted()
T3A04 012:821.528 - 0.734ms returns FALSE
T3A04 012:921.703 JLINK_HasError()
T3A04 012:921.769 JLINK_IsHalted()
T3A04 012:922.513 - 0.767ms returns FALSE
T3A04 013:022.726 JLINK_HasError()
T3A04 013:022.798 JLINK_IsHalted()
T3A04 013:023.527 - 0.742ms returns FALSE
T3A04 013:123.862 JLINK_HasError()
T3A04 013:123.914 JLINK_HasError()
T3A04 013:123.930 JLINK_ReadMemU32(0xE0001004, 0x1 Items)
T3A04 013:123.954   CPU_ReadMem(4 bytes @ 0xE0001004)
T3A04 013:124.635   Data:  3D 75 C1 1B
T3A04 013:124.662   Debug reg: DWT_CYCCNT
T3A04 013:124.678 - 0.753ms returns 1 (0x1)
T3A04 013:126.595 JLINK_IsHalted()
T3A04 013:127.333 - 0.762ms returns FALSE
T3A04 013:227.657 JLINK_HasError()
T3A04 013:227.702 JLINK_IsHalted()
T3A04 013:228.438 - 0.756ms returns FALSE
T5BA4 013:313.937 JLINK_ReadMemEx(0x08015246, 0x2 Bytes, Flags = 0x02000000)
T5BA4 013:314.010   CPU_ReadMem(2 bytes @ 0x08015246)
T5BA4 013:314.804   Data:  6A 48
T5BA4 013:314.855 - 0.928ms returns 2 (0x2)
T5BA4 013:314.986 JLINK_ReadMemEx(0x08015248, 0x2 Bytes, Flags = 0x02000000)
T5BA4 013:315.017   CPU_ReadMem(2 bytes @ 0x08015248)
T5BA4 013:315.763   Data:  80 79
T5BA4 013:315.802 - 0.828ms returns 2 (0x2)
T5BA4 013:315.857 JLINK_ReadMemEx(0x08015248, 0x2 Bytes, Flags = 0x02000000)
T5BA4 013:315.884   CPU_ReadMem(2 bytes @ 0x08015248)
T5BA4 013:316.570   Data:  80 79
T5BA4 013:316.615 - 0.767ms returns 2 (0x2)
T5BA4 013:316.642 JLINK_ReadMemEx(0x0801524A, 0x2 Bytes, Flags = 0x02000000)
T5BA4 013:316.667   CPU_ReadMem(2 bytes @ 0x0801524A)
T5BA4 013:317.368   Data:  00 F0
T5BA4 013:317.405 - 0.770ms returns 2 (0x2)
T5BA4 013:317.454 JLINK_ReadMemEx(0x0801524A, 0x2 Bytes, Flags = 0x02000000)
T5BA4 013:317.483   CPU_ReadMem(2 bytes @ 0x0801524A)
T5BA4 013:318.241   Data:  00 F0
T5BA4 013:318.286 - 0.842ms returns 2 (0x2)
T5BA4 013:318.312 JLINK_ReadMemEx(0x0801524C, 0x2 Bytes, Flags = 0x02000000)
T5BA4 013:318.336   CPU_ReadMem(2 bytes @ 0x0801524C)
T5BA4 013:319.041   Data:  03 00
T5BA4 013:319.087 - 0.782ms returns 2 (0x2)
T3A04 013:329.002 JLINK_HasError()
T3A04 013:329.057 JLINK_IsHalted()
T3A04 013:329.807 - 0.784ms returns FALSE
T3A04 013:430.631 JLINK_HasError()
T3A04 013:430.676 JLINK_IsHalted()
T3A04 013:431.413 - 0.759ms returns FALSE
T3A04 013:531.903 JLINK_HasError()
T3A04 013:531.943 JLINK_IsHalted()
T3A04 013:532.690 - 0.763ms returns FALSE
T3A04 013:633.051 JLINK_HasError()
T3A04 013:633.098 JLINK_IsHalted()
T3A04 013:633.843 - 0.773ms returns FALSE
T3A04 013:733.995 JLINK_HasError()
T3A04 013:734.055 JLINK_HasError()
T3A04 013:734.078 JLINK_ReadMemU32(0xE0001004, 0x1 Items)
T3A04 013:734.110   Data:  3D 75 C1 1B
T3A04 013:734.137   Debug reg: DWT_CYCCNT
T3A04 013:734.161 - 0.099ms returns 1 (0x1)
T5BA4 013:737.830 JLINK_ReadMemEx(0x200001EC, 0x1 Bytes, Flags = 0x02000000)
T5BA4 013:737.886   CPU_ReadMem(1 bytes @ 0x200001EC)
T5BA4 013:738.593   Data:  10
T5BA4 013:738.631 - 0.807ms returns 1 (0x1)
T5BA4 013:738.664 JLINK_ReadMemEx(0x200001ED, 0x1 Bytes, Flags = 0x02000000)
T5BA4 013:738.692   CPU_ReadMem(1 bytes @ 0x200001ED)
T5BA4 013:739.419   Data:  00
T5BA4 013:739.450 - 0.791ms returns 1 (0x1)
T5BA4 013:739.475 JLINK_ReadMemEx(0x200001ED, 0x1 Bytes, Flags = 0x02000000)
T5BA4 013:739.496   CPU_ReadMem(1 bytes @ 0x200001ED)
T5BA4 013:740.259   Data:  00
T5BA4 013:740.288 - 0.819ms returns 1 (0x1)
T5BA4 013:740.309 JLINK_ReadMemEx(0x200001ED, 0x1 Bytes, Flags = 0x02000000)
T5BA4 013:740.328   CPU_ReadMem(1 bytes @ 0x200001ED)
T5BA4 013:741.017   Data:  00
T5BA4 013:741.045 - 0.741ms returns 1 (0x1)
T5BA4 013:741.065 JLINK_ReadMemEx(0x200001ED, 0x1 Bytes, Flags = 0x02000000)
T5BA4 013:741.093   CPU_ReadMem(1 bytes @ 0x200001ED)
T5BA4 013:741.763   Data:  00
T5BA4 013:741.790 - 0.731ms returns 1 (0x1)
T5BA4 013:741.811 JLINK_ReadMemEx(0x200001ED, 0x1 Bytes, Flags = 0x02000000)
T5BA4 013:741.829   CPU_ReadMem(1 bytes @ 0x200001ED)
T5BA4 013:742.506   Data:  00
T5BA4 013:742.534 - 0.728ms returns 1 (0x1)
T5BA4 013:742.554 JLINK_ReadMemEx(0x200001ED, 0x1 Bytes, Flags = 0x02000000)
